
**** 10/31/20 21:10:23 *********** Evaluation PSpice (Nov 1999) **************

 * C:\Users\matth\OneDrive - Technische Universitt Graz\Dokumente\Studium\Graz\Semester_3\Elektrische_Netzwerke_und_Mehrtore\UE_git\U


 ****     CIRCUIT DESCRIPTION


******************************************************************************




* Schematics Version 9.1 - Web Update 1
* Sat Oct 31 21:10:23 2020



** Analysis setup **
.OP 


* From [PSPICE NETLIST] section of pspiceev.ini:
.lib "nom.lib"

.INC "Schematic2.net"

**** INCLUDING Schematic2.net ****
* Schematics Netlist *



R_R4         $N_0001 0  10  
R_R1         $N_0003 $N_0002  5  
R_R3         $N_0004 $N_0001  15  
V_V1         $N_0005 $N_0002 DC 20  
R_R5         $N_0005 $N_0006  5  
R_R6         0 $N_0006  15  
H_H1         0 $N_0003 VH_H1 4
VH_H1        $N_0004 $N_0005 0V
R_R2         $N_0001 $N_0003  10  
I_I1         $N_0001 $N_0006 DC 2  

**** RESUMING Schematic2.cir ****
.INC "Schematic2.als"



**** INCLUDING Schematic2.als ****
* Schematics Aliases *

.ALIASES
R_R4            R4(1=$N_0001 2=0 )
R_R1            R1(1=$N_0003 2=$N_0002 )
R_R3            R3(1=$N_0004 2=$N_0001 )
V_V1            V1(+=$N_0005 -=$N_0002 )
R_R5            R5(1=$N_0005 2=$N_0006 )
R_R6            R6(1=0 2=$N_0006 )
H_H1            H1(3=0 4=$N_0003 )
VH_H1           H1(1=$N_0004 2=$N_0005 )
R_R2            R2(1=$N_0001 2=$N_0003 )
I_I1            I1(+=$N_0001 -=$N_0006 )
.ENDALIASES


**** RESUMING Schematic2.cir ****
.probe


.END

**** 10/31/20 21:10:23 *********** Evaluation PSpice (Nov 1999) **************

 * C:\Users\matth\OneDrive - Technische Universitt Graz\Dokumente\Studium\Graz\Semester_3\Elektrische_Netzwerke_und_Mehrtore\UE_git\U


 ****     SMALL SIGNAL BIAS SOLUTION       TEMPERATURE =   27.000 DEG C


******************************************************************************



 NODE   VOLTAGE     NODE   VOLTAGE     NODE   VOLTAGE     NODE   VOLTAGE


($N_0001)    -.1754                   ($N_0002)     .8772                       

($N_0003)    5.6140                   ($N_0004)   20.8770                       

($N_0005)   20.8770                   ($N_0006)   23.1580                   




    VOLTAGE SOURCE CURRENTS
    NAME         CURRENT

    V_V1        -9.474E-01
    VH_H1       -1.404E+00

    TOTAL POWER DISSIPATION   1.89E+01  WATTS


**** 10/31/20 21:10:23 *********** Evaluation PSpice (Nov 1999) **************

 * C:\Users\matth\OneDrive - Technische Universitt Graz\Dokumente\Studium\Graz\Semester_3\Elektrische_Netzwerke_und_Mehrtore\UE_git\U


 ****     OPERATING POINT INFORMATION      TEMPERATURE =   27.000 DEG C


******************************************************************************






**** CURRENT-CONTROLLED VOLTAGE SOURCES


NAME         H_H1      
V-SOURCE    -5.614E+00
I-SOURCE     1.526E+00

          JOB CONCLUDED

          TOTAL JOB TIME             .05
