
**** 11/10/20 17:04:14 *********** Evaluation PSpice (Nov 1999) **************

 * C:\Users\David\Documents\Studium\GitHub\UE Elektrische Netzwerke und Mehrtore\Mehrtore\UE_3\PSpice\Schalterposition a\Schalterposi


 ****     CIRCUIT DESCRIPTION


******************************************************************************




* Schematics Version 9.1 - Web Update 1
* Tue Nov 10 17:02:41 2020



** Analysis setup **
.OP 


* From [PSPICE NETLIST] section of pspiceev.ini:
.lib "nom.lib"

.INC "Schalterposition a.net"

**** INCLUDING "Schalterposition a.net" ****
* Schematics Netlist *



R_R3         $N_0002 $N_0001  10  
R_R2         0 $N_0001  6  
V_V1         $N_0003 $N_0002 DC 10  
R_R1         $N_0003 0  4  
I_I1         $N_0004 $N_0002 DC 120m  
R_R4         $N_0001 $N_0004  8  

**** RESUMING "Schalterposition a.cir" ****
.INC "Schalterposition a.als"



**** INCLUDING "Schalterposition a.als" ****
* Schematics Aliases *

.ALIASES
R_R3            R3(1=$N_0002 2=$N_0001 )
R_R2            R2(1=0 2=$N_0001 )
V_V1            V1(+=$N_0003 -=$N_0002 )
R_R1            R1(1=$N_0003 2=0 )
I_I1            I1(+=$N_0004 -=$N_0002 )
R_R4            R4(1=$N_0001 2=$N_0004 )
.ENDALIASES


**** RESUMING "Schalterposition a.cir" ****
.probe


.END

**** 11/10/20 17:04:14 *********** Evaluation PSpice (Nov 1999) **************

 * C:\Users\David\Documents\Studium\GitHub\UE Elektrische Netzwerke und Mehrtore\Mehrtore\UE_3\PSpice\Schalterposition a\Schalterposi


 ****     SMALL SIGNAL BIAS SOLUTION       TEMPERATURE =   27.000 DEG C


******************************************************************************



 NODE   VOLTAGE     NODE   VOLTAGE     NODE   VOLTAGE     NODE   VOLTAGE


($N_0001)   -3.3600                   ($N_0002)   -7.7600                       

($N_0003)    2.2400                   ($N_0004)   -4.3200                   




    VOLTAGE SOURCE CURRENTS
    NAME         CURRENT

    V_V1        -5.600E-01

    TOTAL POWER DISSIPATION   5.60E+00  WATTS


**** 11/10/20 17:04:14 *********** Evaluation PSpice (Nov 1999) **************

 * C:\Users\David\Documents\Studium\GitHub\UE Elektrische Netzwerke und Mehrtore\Mehrtore\UE_3\PSpice\Schalterposition a\Schalterposi


 ****     OPERATING POINT INFORMATION      TEMPERATURE =   27.000 DEG C


******************************************************************************





          JOB CONCLUDED

          TOTAL JOB TIME             .02
