
**** 11/15/20 17:13:27 *********** Evaluation PSpice (Nov 1999) **************

 * C:\Users\David\Documents\Studium\GitHub\UE Elektrische Netzwerke und Mehrtore\Mehrtore\UE_4\SP_1.sch


 ****     CIRCUIT DESCRIPTION


******************************************************************************




* Schematics Version 9.1 - Web Update 1
* Sun Nov 15 17:13:26 2020



** Analysis setup **
.tran 0ns 4ms
.OP 


* From [PSPICE NETLIST] section of pspiceev.ini:
.lib "nom.lib"

.INC "SP_1.net"

**** INCLUDING SP_1.net ****
* Schematics Netlist *



R_R1         $N_0002 $N_0001  50  
V_V1         $N_0001 0 DC 10  
L_L1         0 $N_0002  100mH IC=50mA 

**** RESUMING SP_1.cir ****
.INC "SP_1.als"



**** INCLUDING SP_1.als ****
* Schematics Aliases *

.ALIASES
R_R1            R1(1=$N_0002 2=$N_0001 )
V_V1            V1(+=$N_0001 -=0 )
L_L1            L1(1=0 2=$N_0002 )
.ENDALIASES


**** RESUMING SP_1.cir ****
.probe


.END

**** 11/15/20 17:13:27 *********** Evaluation PSpice (Nov 1999) **************

 * C:\Users\David\Documents\Studium\GitHub\UE Elektrische Netzwerke und Mehrtore\Mehrtore\UE_4\SP_1.sch


 ****     SMALL SIGNAL BIAS SOLUTION       TEMPERATURE =   27.000 DEG C


******************************************************************************



 NODE   VOLTAGE     NODE   VOLTAGE     NODE   VOLTAGE     NODE   VOLTAGE


($N_0001)   10.0000                   ($N_0002)   12.5000                   




    VOLTAGE SOURCE CURRENTS
    NAME         CURRENT

    V_V1         5.000E-02

    TOTAL POWER DISSIPATION  -5.00E-01  WATTS


**** 11/15/20 17:13:27 *********** Evaluation PSpice (Nov 1999) **************

 * C:\Users\David\Documents\Studium\GitHub\UE Elektrische Netzwerke und Mehrtore\Mehrtore\UE_4\SP_1.sch


 ****     OPERATING POINT INFORMATION      TEMPERATURE =   27.000 DEG C


******************************************************************************




**** 11/15/20 17:13:27 *********** Evaluation PSpice (Nov 1999) **************

 * C:\Users\David\Documents\Studium\GitHub\UE Elektrische Netzwerke und Mehrtore\Mehrtore\UE_4\SP_1.sch


 ****     INITIAL TRANSIENT SOLUTION       TEMPERATURE =   27.000 DEG C


******************************************************************************



 NODE   VOLTAGE     NODE   VOLTAGE     NODE   VOLTAGE     NODE   VOLTAGE


($N_0001)   10.0000                   ($N_0002)   12.5000                   




    VOLTAGE SOURCE CURRENTS
    NAME         CURRENT

    V_V1         5.000E-02

    TOTAL POWER DISSIPATION  -5.00E-01  WATTS



          JOB CONCLUDED

          TOTAL JOB TIME             .05
