
**** 11/15/20 17:17:19 *********** Evaluation PSpice (Nov 1999) **************

 * C:\Users\David\Documents\Studium\GitHub\UE Elektrische Netzwerke und Mehrtore\Mehrtore\UE_4\SP_1.sch


 ****     CIRCUIT DESCRIPTION


******************************************************************************




* Schematics Version 9.1 - Web Update 1
* Sun Nov 15 17:17:19 2020



** Analysis setup **
.tran 0ns 4ms
.OP 


* From [PSPICE NETLIST] section of pspiceev.ini:
.lib "nom.lib"

.INC "SP_1.net"

**** INCLUDING SP_1.net ****
* Schematics Netlist *



V_V1         $N_0001 0 DC 10  
R_R1         $N_0002 $N_0001  50  
X_U1         $N_0003 $N_0002 Sw_tClose PARAMS: tClose=0 ttran=1u Rclosed=0.01
+  Ropen=1Meg
L_L1         $N_0003 0  100mH  

**** RESUMING SP_1.cir ****
.INC "SP_1.als"



**** INCLUDING SP_1.als ****
* Schematics Aliases *

.ALIASES
V_V1            V1(+=$N_0001 -=0 )
R_R1            R1(1=$N_0002 2=$N_0001 )
X_U1            U1(1=$N_0003 2=$N_0002 )
L_L1            L1(1=$N_0003 2=0 )
.ENDALIASES


**** RESUMING SP_1.cir ****
.probe


.END

**** 11/15/20 17:17:19 *********** Evaluation PSpice (Nov 1999) **************

 * C:\Users\David\Documents\Studium\GitHub\UE Elektrische Netzwerke und Mehrtore\Mehrtore\UE_4\SP_1.sch


 ****     Voltage Controlled Switch MODEL PARAMETERS


******************************************************************************




               X_U1.Smod       
         RON     .01         
        ROFF    1.000000E+06 
         VON    1            
        VOFF    0            


**** 11/15/20 17:17:19 *********** Evaluation PSpice (Nov 1999) **************

 * C:\Users\David\Documents\Studium\GitHub\UE Elektrische Netzwerke und Mehrtore\Mehrtore\UE_4\SP_1.sch


 ****     SMALL SIGNAL BIAS SOLUTION       TEMPERATURE =   27.000 DEG C


******************************************************************************



 NODE   VOLTAGE     NODE   VOLTAGE     NODE   VOLTAGE     NODE   VOLTAGE


(X_U1.3)    0.0000 ($N_0001)   10.0000                   ($N_0002)    9.9995    

($N_0003)    0.0000                   




    VOLTAGE SOURCE CURRENTS
    NAME         CURRENT

    V_V1        -1.000E-05
    X_U1.V1      0.000E+00

    TOTAL POWER DISSIPATION   1.00E-04  WATTS


**** 11/15/20 17:17:19 *********** Evaluation PSpice (Nov 1999) **************

 * C:\Users\David\Documents\Studium\GitHub\UE Elektrische Netzwerke und Mehrtore\Mehrtore\UE_4\SP_1.sch


 ****     OPERATING POINT INFORMATION      TEMPERATURE =   27.000 DEG C


******************************************************************************






**** VOLTAGE CONTROLLED SWITCHES


NAME         X_U1.S1   
MODEL        X_U1.Smod 
I LOAD      -1.00E-05 
V LOAD      -1.00E+01 
R LOAD       1.00E+06 
V CTRL       0.00E+00 
**** 11/15/20 17:17:19 *********** Evaluation PSpice (Nov 1999) **************

 * C:\Users\David\Documents\Studium\GitHub\UE Elektrische Netzwerke und Mehrtore\Mehrtore\UE_4\SP_1.sch


 ****     INITIAL TRANSIENT SOLUTION       TEMPERATURE =   27.000 DEG C


******************************************************************************



 NODE   VOLTAGE     NODE   VOLTAGE     NODE   VOLTAGE     NODE   VOLTAGE


(X_U1.3)    0.0000 ($N_0001)   10.0000                   ($N_0002)    9.9995    

($N_0003)    0.0000                   




    VOLTAGE SOURCE CURRENTS
    NAME         CURRENT

    V_V1        -1.000E-05
    X_U1.V1      0.000E+00

    TOTAL POWER DISSIPATION   1.00E-04  WATTS



          JOB CONCLUDED

          TOTAL JOB TIME             .09
