
**** 11/08/20 17:10:05 *********** Evaluation PSpice (Nov 1999) **************

 * C:\Users\matth\OneDrive - Technische Universitt Graz\Dokumente\Studium\Graz\Semester_3\Elektrische_Netzwerke_und_Mehrtore\UE_git\U


 ****     CIRCUIT DESCRIPTION


******************************************************************************




* Schematics Version 9.1 - Web Update 1
* Sun Nov 08 17:10:05 2020



** Analysis setup **
.OP 


* From [PSPICE NETLIST] section of pspiceev.ini:
.lib "nom.lib"

.INC "GR04_UE_03_position_b_network.net"

**** INCLUDING GR04_UE_03_position_b_network.net ****
* Schematics Netlist *



R_R2         0 $N_0001  12  
R_R1         $N_0001 $N_0002  20  
I_I1         $N_0002 0 DC 0.5  

**** RESUMING GR04_UE_03_position_b_network.cir ****
.INC "GR04_UE_03_position_b_network.als"



**** INCLUDING GR04_UE_03_position_b_network.als ****
* Schematics Aliases *

.ALIASES
R_R2            R2(1=0 2=$N_0001 )
R_R1            R1(1=$N_0001 2=$N_0002 )
I_I1            I1(+=$N_0002 -=0 )
.ENDALIASES


**** RESUMING GR04_UE_03_position_b_network.cir ****
.probe


.END

**** 11/08/20 17:10:05 *********** Evaluation PSpice (Nov 1999) **************

 * C:\Users\matth\OneDrive - Technische Universitt Graz\Dokumente\Studium\Graz\Semester_3\Elektrische_Netzwerke_und_Mehrtore\UE_git\U


 ****     SMALL SIGNAL BIAS SOLUTION       TEMPERATURE =   27.000 DEG C


******************************************************************************



 NODE   VOLTAGE     NODE   VOLTAGE     NODE   VOLTAGE     NODE   VOLTAGE


($N_0001)   -6.0000                   ($N_0002)  -16.0000                   




    VOLTAGE SOURCE CURRENTS
    NAME         CURRENT


    TOTAL POWER DISSIPATION   0.00E+00  WATTS


**** 11/08/20 17:10:05 *********** Evaluation PSpice (Nov 1999) **************

 * C:\Users\matth\OneDrive - Technische Universitt Graz\Dokumente\Studium\Graz\Semester_3\Elektrische_Netzwerke_und_Mehrtore\UE_git\U


 ****     OPERATING POINT INFORMATION      TEMPERATURE =   27.000 DEG C


******************************************************************************





          JOB CONCLUDED

          TOTAL JOB TIME             .02
