
**** 11/08/20 17:48:10 *********** Evaluation PSpice (Nov 1999) **************

 * C:\Users\matth\OneDrive - Technische Universitt Graz\Dokumente\Studium\Graz\Semester_3\Elektrische_Netzwerke_und_Mehrtore\UE_git\U


 ****     CIRCUIT DESCRIPTION


******************************************************************************




* Schematics Version 9.1 - Web Update 1
* Sun Nov 08 17:48:06 2020



** Analysis setup **
.tran 0ns 101.275ms
.OP 


* From [PSPICE NETLIST] section of pspiceev.ini:
.lib "nom.lib"

.INC "GR04_UE_03_whole_simulation.net"

**** INCLUDING GR04_UE_03_whole_simulation.net ****
* Schematics Netlist *



R_R1         $N_0001 0  4  
R_R2         0 $N_0002  6  
R_R3         $N_0002 $N_0003  10  
R_R4         $N_0004 $N_0002  8  
R_R5         $N_0006 $N_0005  5  
R_R6         $N_0007 0  12  
R_R7         $N_0007 $N_0008  20  
X_U2         $N_0004 $N_0006 Sw_tOpen PARAMS: tOpen=0.1 ttran=1u Rclosed=0.01
+  Ropen=1Meg
X_U1         $N_0006 $N_0007 Sw_tClose PARAMS: tClose=0.1 ttran=1u Rclosed=0.01
+  Ropen=1Meg
C_C1         0 $N_0005  15u  
I_I2         $N_0004 $N_0003 DC 0.12  
V_V1         $N_0001 $N_0003 DC 10  
I_I1         $N_0008 0 DC 0.5  

**** RESUMING GR04_UE_03_whole_simulation.cir ****
.INC "GR04_UE_03_whole_simulation.als"



**** INCLUDING GR04_UE_03_whole_simulation.als ****
* Schematics Aliases *

.ALIASES
R_R1            R1(1=$N_0001 2=0 )
R_R2            R2(1=0 2=$N_0002 )
R_R3            R3(1=$N_0002 2=$N_0003 )
R_R4            R4(1=$N_0004 2=$N_0002 )
R_R5            R5(1=$N_0006 2=$N_0005 )
R_R6            R6(1=$N_0007 2=0 )
R_R7            R7(1=$N_0007 2=$N_0008 )
X_U2            U2(1=$N_0004 2=$N_0006 )
X_U1            U1(1=$N_0006 2=$N_0007 )
C_C1            C1(1=0 2=$N_0005 )
I_I2            I2(+=$N_0004 -=$N_0003 )
V_V1            V1(+=$N_0001 -=$N_0003 )
I_I1            I1(+=$N_0008 -=0 )
.ENDALIASES


**** RESUMING GR04_UE_03_whole_simulation.cir ****
.probe


.END

**** 11/08/20 17:48:10 *********** Evaluation PSpice (Nov 1999) **************

 * C:\Users\matth\OneDrive - Technische Universitt Graz\Dokumente\Studium\Graz\Semester_3\Elektrische_Netzwerke_und_Mehrtore\UE_git\U


 ****     Voltage Controlled Switch MODEL PARAMETERS


******************************************************************************




               X_U2.Smod       X_U1.Smod       
         RON     .01             .01         
        ROFF    1.000000E+06    1.000000E+06 
         VON    1               1            
        VOFF    0               0            


**** 11/08/20 17:48:10 *********** Evaluation PSpice (Nov 1999) **************

 * C:\Users\matth\OneDrive - Technische Universitt Graz\Dokumente\Studium\Graz\Semester_3\Elektrische_Netzwerke_und_Mehrtore\UE_git\U


 ****     SMALL SIGNAL BIAS SOLUTION       TEMPERATURE =   27.000 DEG C


******************************************************************************



 NODE   VOLTAGE     NODE   VOLTAGE     NODE   VOLTAGE     NODE   VOLTAGE


(X_U1.3)    0.0000 (X_U2.3)    1.0000 ($N_0001)    2.2400                       

($N_0002)   -3.3600                   ($N_0003)   -7.7600                       

($N_0004)   -4.3200                   ($N_0005)   -4.3200                       

($N_0006)   -4.3200                   ($N_0007)   -6.0000                       

($N_0008)  -16.0000                   




    VOLTAGE SOURCE CURRENTS
    NAME         CURRENT

    V_V1        -5.600E-01
    X_U2.V1     -1.000E-12
    X_U1.V1      0.000E+00

    TOTAL POWER DISSIPATION   5.60E+00  WATTS


**** 11/08/20 17:48:10 *********** Evaluation PSpice (Nov 1999) **************

 * C:\Users\matth\OneDrive - Technische Universitt Graz\Dokumente\Studium\Graz\Semester_3\Elektrische_Netzwerke_und_Mehrtore\UE_git\U


 ****     OPERATING POINT INFORMATION      TEMPERATURE =   27.000 DEG C


******************************************************************************






**** VOLTAGE CONTROLLED SWITCHES


NAME         X_U2.S1     X_U1.S1   
MODEL        X_U2.Smod   X_U1.Smod 
I LOAD       1.68E-06    1.68E-06 
V LOAD       1.68E-08    1.68E+00 
R LOAD       1.00E-02    1.00E+06 
V CTRL       1.00E+00    0.00E+00 
**** 11/08/20 17:48:10 *********** Evaluation PSpice (Nov 1999) **************

 * C:\Users\matth\OneDrive - Technische Universitt Graz\Dokumente\Studium\Graz\Semester_3\Elektrische_Netzwerke_und_Mehrtore\UE_git\U


 ****     INITIAL TRANSIENT SOLUTION       TEMPERATURE =   27.000 DEG C


******************************************************************************



 NODE   VOLTAGE     NODE   VOLTAGE     NODE   VOLTAGE     NODE   VOLTAGE


(X_U1.3)    0.0000 (X_U2.3)    1.0000 ($N_0001)    2.2400                       

($N_0002)   -3.3600                   ($N_0003)   -7.7600                       

($N_0004)   -4.3200                   ($N_0005)   -4.3200                       

($N_0006)   -4.3200                   ($N_0007)   -6.0000                       

($N_0008)  -16.0000                   




    VOLTAGE SOURCE CURRENTS
    NAME         CURRENT

    V_V1        -5.600E-01
    X_U2.V1     -1.000E-12
    X_U1.V1      0.000E+00

    TOTAL POWER DISSIPATION   5.60E+00  WATTS



          JOB CONCLUDED

          TOTAL JOB TIME             .03
