
**** 11/08/20 15:37:16 *********** Evaluation PSpice (Nov 1999) **************

 * C:\Users\matth\OneDrive - Technische Universitt Graz\Dokumente\Studium\Graz\Semester_3\Elektrische_Netzwerke_und_Mehrtore\UE_git\U


 ****     CIRCUIT DESCRIPTION


******************************************************************************




* Schematics Version 9.1 - Web Update 1
* Sun Nov 08 15:37:12 2020



** Analysis setup **
.OP 


* From [PSPICE NETLIST] section of pspiceev.ini:
.lib "nom.lib"

.INC "GR04_UE_03_position_a_network.net"

**** INCLUDING GR04_UE_03_position_a_network.net ****
* Schematics Netlist *



R_R1         $N_0001 0  4  
R_R2         0 $N_0002  6  
R_R3         $N_0002 $N_0003  10  
R_R4         $N_0004 $N_0002  8  
V_V1         $N_0001 $N_0003 DC 10  
I_I1         $N_0004 $N_0003 DC 0.12  

**** RESUMING GR04_UE_03_position_a_network.cir ****
.INC "GR04_UE_03_position_a_network.als"



**** INCLUDING GR04_UE_03_position_a_network.als ****
* Schematics Aliases *

.ALIASES
R_R1            R1(1=$N_0001 2=0 )
R_R2            R2(1=0 2=$N_0002 )
R_R3            R3(1=$N_0002 2=$N_0003 )
R_R4            R4(1=$N_0004 2=$N_0002 )
V_V1            V1(+=$N_0001 -=$N_0003 )
I_I1            I1(+=$N_0004 -=$N_0003 )
.ENDALIASES


**** RESUMING GR04_UE_03_position_a_network.cir ****
.probe


.END

**** 11/08/20 15:37:16 *********** Evaluation PSpice (Nov 1999) **************

 * C:\Users\matth\OneDrive - Technische Universitt Graz\Dokumente\Studium\Graz\Semester_3\Elektrische_Netzwerke_und_Mehrtore\UE_git\U


 ****     SMALL SIGNAL BIAS SOLUTION       TEMPERATURE =   27.000 DEG C


******************************************************************************



 NODE   VOLTAGE     NODE   VOLTAGE     NODE   VOLTAGE     NODE   VOLTAGE


($N_0001)    2.2400                   ($N_0002)   -3.3600                       

($N_0003)   -7.7600                   ($N_0004)   -4.3200                   




    VOLTAGE SOURCE CURRENTS
    NAME         CURRENT

    V_V1        -5.600E-01

    TOTAL POWER DISSIPATION   5.60E+00  WATTS


**** 11/08/20 15:37:16 *********** Evaluation PSpice (Nov 1999) **************

 * C:\Users\matth\OneDrive - Technische Universitt Graz\Dokumente\Studium\Graz\Semester_3\Elektrische_Netzwerke_und_Mehrtore\UE_git\U


 ****     OPERATING POINT INFORMATION      TEMPERATURE =   27.000 DEG C


******************************************************************************





          JOB CONCLUDED

          TOTAL JOB TIME             .03
