
**** 11/08/20 15:39:14 *********** Evaluation PSpice (Nov 1999) **************

 * C:\Users\David\Documents\Studium\GitHub\UE Elektrische Netzwerke und Mehrtore\Mehrtore\UE_3\PSpice\Testschematic.sch


 ****     CIRCUIT DESCRIPTION


******************************************************************************




* Schematics Version 9.1 - Web Update 1
* Sun Nov 08 15:39:14 2020



** Analysis setup **
.OP 


* From [PSPICE NETLIST] section of pspiceev.ini:
.lib "nom.lib"

.INC "Testschematic.net"

**** INCLUDING Testschematic.net ****
* Schematics Netlist *



R_R3         $N_0002 $N_0001  10  
R_R2         0 $N_0001  6  
R_R4         $N_0001 $N_0003  8  
I_I1         $N_0003 $N_0002 DC 120m  
V_V1         $N_0004 $N_0002 DC 10  
R_R1         $N_0004 0  4  

**** RESUMING Testschematic.cir ****
.INC "Testschematic.als"



**** INCLUDING Testschematic.als ****
* Schematics Aliases *

.ALIASES
R_R3            R3(1=$N_0002 2=$N_0001 )
R_R2            R2(1=0 2=$N_0001 )
R_R4            R4(1=$N_0001 2=$N_0003 )
I_I1            I1(+=$N_0003 -=$N_0002 )
V_V1            V1(+=$N_0004 -=$N_0002 )
R_R1            R1(1=$N_0004 2=0 )
.ENDALIASES


**** RESUMING Testschematic.cir ****
.probe


.END

**** 11/08/20 15:39:14 *********** Evaluation PSpice (Nov 1999) **************

 * C:\Users\David\Documents\Studium\GitHub\UE Elektrische Netzwerke und Mehrtore\Mehrtore\UE_3\PSpice\Testschematic.sch


 ****     SMALL SIGNAL BIAS SOLUTION       TEMPERATURE =   27.000 DEG C


******************************************************************************



 NODE   VOLTAGE     NODE   VOLTAGE     NODE   VOLTAGE     NODE   VOLTAGE


($N_0001)   -3.3600                   ($N_0002)   -7.7600                       

($N_0003)   -4.3200                   ($N_0004)    2.2400                   




    VOLTAGE SOURCE CURRENTS
    NAME         CURRENT

    V_V1        -5.600E-01

    TOTAL POWER DISSIPATION   5.60E+00  WATTS


**** 11/08/20 15:39:14 *********** Evaluation PSpice (Nov 1999) **************

 * C:\Users\David\Documents\Studium\GitHub\UE Elektrische Netzwerke und Mehrtore\Mehrtore\UE_3\PSpice\Testschematic.sch


 ****     OPERATING POINT INFORMATION      TEMPERATURE =   27.000 DEG C


******************************************************************************





          JOB CONCLUDED

          TOTAL JOB TIME             .02
