
**** 11/10/20 18:09:16 *********** Evaluation PSpice (Nov 1999) **************

 * C:\Users\David\Documents\Studium\GitHub\UE Elektrische Netzwerke und Mehrtore\Mehrtore\UE_3\PSpice\Gesamter Schaltvorgang\gesamter


 ****     CIRCUIT DESCRIPTION


******************************************************************************




* Schematics Version 9.1 - Web Update 1
* Tue Nov 10 18:09:16 2020



** Analysis setup **
.tran 0 0.101275s 0 10us
.OP 


* From [PSPICE NETLIST] section of pspiceev.ini:
.lib "nom.lib"

.INC "gesamter Schaltvorgang.net"

**** INCLUDING "gesamter Schaltvorgang.net" ****
* Schematics Netlist *



R_R1         0 $N_0001  4  
R_R2         0 $N_0002  6  
R_R3         $N_0003 $N_0002  10  
R_R4         $N_0002 $N_0004  8  
R_R5         $N_0006 $N_0005  5  
R_R6         0 $N_0007  12  
C_C         0 $N_0006  15u  
V_US1         $N_0001 $N_0003 DC 10  
I_IS3         $N_0008 0 DC 0.5  
R_R7         $N_0007 $N_0008  20  
X_b         $N_0005 $N_0007 Sw_tClose PARAMS: tClose=0.1 ttran=1u Rclosed=0.01
+  Ropen=1Meg
X_a         $N_0004 $N_0005 Sw_tOpen PARAMS: tOpen=0.1 ttran=1u Rclosed=0.01
+  Ropen=1Meg
I_IS2         $N_0004 $N_0003 DC 120m  

**** RESUMING "gesamter Schaltvorgang.cir" ****
.INC "gesamter Schaltvorgang.als"



**** INCLUDING "gesamter Schaltvorgang.als" ****
* Schematics Aliases *

.ALIASES
R_R1            R1(1=0 2=$N_0001 )
R_R2            R2(1=0 2=$N_0002 )
R_R3            R3(1=$N_0003 2=$N_0002 )
R_R4            R4(1=$N_0002 2=$N_0004 )
R_R5            R5(1=$N_0006 2=$N_0005 )
R_R6            R6(1=0 2=$N_0007 )
C_C             C(1=0 2=$N_0006 )
V_US1           US1(+=$N_0001 -=$N_0003 )
I_IS3           IS3(+=$N_0008 -=0 )
R_R7            R7(1=$N_0007 2=$N_0008 )
X_b             b(1=$N_0005 2=$N_0007 )
X_a             a(1=$N_0004 2=$N_0005 )
I_IS2           IS2(+=$N_0004 -=$N_0003 )
.ENDALIASES


**** RESUMING "gesamter Schaltvorgang.cir" ****
.probe


.END

**** 11/10/20 18:09:16 *********** Evaluation PSpice (Nov 1999) **************

 * C:\Users\David\Documents\Studium\GitHub\UE Elektrische Netzwerke und Mehrtore\Mehrtore\UE_3\PSpice\Gesamter Schaltvorgang\gesamter


 ****     Voltage Controlled Switch MODEL PARAMETERS


******************************************************************************




               X_b.Smod        X_a.Smod        
         RON     .01             .01         
        ROFF    1.000000E+06    1.000000E+06 
         VON    1               1            
        VOFF    0               0            


**** 11/10/20 18:09:16 *********** Evaluation PSpice (Nov 1999) **************

 * C:\Users\David\Documents\Studium\GitHub\UE Elektrische Netzwerke und Mehrtore\Mehrtore\UE_3\PSpice\Gesamter Schaltvorgang\gesamter


 ****     SMALL SIGNAL BIAS SOLUTION       TEMPERATURE =   27.000 DEG C


******************************************************************************



 NODE   VOLTAGE     NODE   VOLTAGE     NODE   VOLTAGE     NODE   VOLTAGE


(X_a.3)    1.0000  (X_b.3)    0.0000  ($N_0001)    2.2400                       

($N_0002)   -3.3600                   ($N_0003)   -7.7600                       

($N_0004)   -4.3200                   ($N_0005)   -4.3200                       

($N_0006)   -4.3200                   ($N_0007)   -6.0000                       

($N_0008)  -16.0000                   




    VOLTAGE SOURCE CURRENTS
    NAME         CURRENT

    V_US1       -5.600E-01
    X_b.V1       0.000E+00
    X_a.V1      -1.000E-12

    TOTAL POWER DISSIPATION   5.60E+00  WATTS


**** 11/10/20 18:09:16 *********** Evaluation PSpice (Nov 1999) **************

 * C:\Users\David\Documents\Studium\GitHub\UE Elektrische Netzwerke und Mehrtore\Mehrtore\UE_3\PSpice\Gesamter Schaltvorgang\gesamter


 ****     OPERATING POINT INFORMATION      TEMPERATURE =   27.000 DEG C


******************************************************************************






**** VOLTAGE CONTROLLED SWITCHES


NAME         X_b.S1      X_a.S1    
MODEL        X_b.Smod    X_a.Smod  
I LOAD       1.68E-06    1.68E-06 
V LOAD       1.68E+00    1.68E-08 
R LOAD       1.00E+06    1.00E-02 
V CTRL       0.00E+00    1.00E+00 
**** 11/10/20 18:09:16 *********** Evaluation PSpice (Nov 1999) **************

 * C:\Users\David\Documents\Studium\GitHub\UE Elektrische Netzwerke und Mehrtore\Mehrtore\UE_3\PSpice\Gesamter Schaltvorgang\gesamter


 ****     INITIAL TRANSIENT SOLUTION       TEMPERATURE =   27.000 DEG C


******************************************************************************



 NODE   VOLTAGE     NODE   VOLTAGE     NODE   VOLTAGE     NODE   VOLTAGE


(X_a.3)    1.0000  (X_b.3)    0.0000  ($N_0001)    2.2400                       

($N_0002)   -3.3600                   ($N_0003)   -7.7600                       

($N_0004)   -4.3200                   ($N_0005)   -4.3200                       

($N_0006)   -4.3200                   ($N_0007)   -6.0000                       

($N_0008)  -16.0000                   




    VOLTAGE SOURCE CURRENTS
    NAME         CURRENT

    V_US1       -5.600E-01
    X_b.V1       0.000E+00
    X_a.V1      -1.000E-12

    TOTAL POWER DISSIPATION   5.60E+00  WATTS



          JOB CONCLUDED

          TOTAL JOB TIME             .38
